T0E00 000:006.502   SEGGER J-Link V7.50 Log File
T0E00 000:006.609   DLL Compiled: Jul  1 2021 17:37:28
T0E00 000:006.614   Logging started @ 2025-06-03 05:50
T0E00 000:006.618 - 6.621ms
T0E00 000:006.626 JLINK_SetWarnOutHandler(...)
T0E00 000:006.632 - 0.007ms
T0E00 000:006.637 JLINK_OpenEx(...)
T0E00 000:008.151   Firmware: J-Link V9 compiled May  7 2021 16:26:12
T0E00 000:008.379   Firmware: J-Link V9 compiled May  7 2021 16:26:12
T0E00 000:008.491   Decompressing FW timestamp took 94 us
T0E00 000:014.071   Hardware: V9.70
T0E00 000:014.086   S/N: 150713245
T0E00 000:014.092   OEM: SEGGER
T0E00 000:014.098   Feature(s): GDB, RDI, FlashBP, FlashDL, JFlash
T0E00 000:014.871   TELNET listener socket opened on port 19021
T0E00 000:015.018   WEBSRV Starting webserver
T0E00 000:015.243   WEBSRV Webserver running on local port 19080
T0E00 000:015.257 - 8.624ms returns "O.K."
T0E00 000:015.278 JLINK_GetEmuCaps()
T0E00 000:015.286 - 0.012ms returns 0xB9FF7BBF
T0E00 000:015.304 JLINK_TIF_GetAvailable(...)
T0E00 000:015.434 - 0.134ms
T0E00 000:015.442 JLINK_SetErrorOutHandler(...)
T0E00 000:015.447 - 0.006ms
T0E00 000:015.458 JLINK_ExecCommand("ProjectFile = "C:\Users\Karudo\Documents\GitHub\i.mxrt1176\i.MXRT1176_FreeRTOS_CANopenSlave\boards\evkbmimxrt1170\driver\flexcan\can1_interrupt_transfer\cm7\mdk\JLinkSettings.ini"", ...). 
T0E00 000:021.862   Ref file found at: C:\Users\Karudo\AppData\Local\Keil_v5\ARM\Segger\JLinkDevices.ref
T0E00 000:021.987   XML referenced by ref file: C:\Program Files\SEGGER\JLink\JLinkDevices.xml
T0E00 000:022.499   C:\Program Files\SEGGER\JLink\JLinkDevices.xml evaluated successfully.
T0E00 000:040.503 - 25.058ms returns 0x00
T0E00 000:043.273 JLINK_ExecCommand("Device = MIMXRT1176DVMAA:cm7", ...). 
T0E00 000:048.184   Device "MIMXRT1176XXXA_M7" selected.
T0E00 000:048.559 - 5.280ms returns 0x00
T0E00 000:048.582 JLINK_GetHardwareVersion()
T0E00 000:048.588 - 0.008ms returns 97000
T0E00 000:048.594 JLINK_GetDLLVersion()
T0E00 000:048.602 - 0.010ms returns 75000
T0E00 000:048.608 JLINK_GetOEMString(...)
T0E00 000:048.615 JLINK_GetFirmwareString(...)
T0E00 000:048.620 - 0.007ms
T0E00 000:054.424 JLINK_GetDLLVersion()
T0E00 000:054.436 - 0.013ms returns 75000
T0E00 000:054.442 JLINK_GetCompileDateTime()
T0E00 000:054.446 - 0.006ms
T0E00 000:056.629 JLINK_GetFirmwareString(...)
T0E00 000:056.645 - 0.018ms
T0E00 000:058.521 JLINK_GetHardwareVersion()
T0E00 000:058.530 - 0.011ms returns 97000
T0E00 000:060.353 JLINK_GetSN()
T0E00 000:060.362 - 0.012ms returns 150713245
T0E00 000:062.183 JLINK_GetOEMString(...)
T0E00 000:066.448 JLINK_TIF_Select(JLINKARM_TIF_SWD)
T0E00 000:066.903 - 0.462ms returns 0x00
T0E00 000:066.918 JLINK_HasError()
T0E00 000:066.969 JLINK_SetSpeed(5000)
T0E00 000:067.075 - 0.108ms
T0E00 000:067.083 JLINK_GetId()
T0E00 000:069.863   Found SW-DP with ID 0x6BA02477
T0E00 000:074.295   DPIDR: 0x6BA02477
T0E00 000:076.856   Scanning AP map to find all available APs
T0E00 000:079.544   AP[3]: Stopped AP scan as end of AP map has been reached
T0E00 000:081.409   AP[0]: AHB-AP (IDR: 0x84770001)
T0E00 000:083.284   AP[1]: AHB-AP (IDR: 0x24770011)
T0E00 000:085.191   AP[2]: APB-AP (IDR: 0x54770002)
T0E00 000:087.145   Iterating through AP map to find AHB-AP to use
T0E00 000:089.716   AP[0]: Core found
T0E00 000:091.792   AP[0]: AHB-AP ROM base: 0xE00FD000
T0E00 000:093.983   CPUID register: 0x411FC272. Implementer code: 0x41 (ARM)
T0E00 000:096.479   Found Cortex-M7 r1p2, Little endian.
T0E00 000:197.214   -- Max. mem block: 0x00010C40
T0E00 000:197.591   CPU_ReadMem(4 bytes @ 0xE000EDF0)
T0E00 000:197.805   CPU_WriteMem(4 bytes @ 0xE000EDF0)
T0E00 000:198.074   CPU_ReadMem(4 bytes @ 0xE0002000)
T0E00 000:201.105   FPUnit: 8 code (BP) slots and 0 literal slots
T0E00 000:201.119   CPU_ReadMem(4 bytes @ 0xE000EDFC)
T0E00 000:201.333   CPU_WriteMem(4 bytes @ 0xE000EDFC)
T0E00 000:201.544   CPU_ReadMem(4 bytes @ 0xE0001000)
T0E00 000:201.763   CPU_WriteMem(4 bytes @ 0xE0001000)
T0E00 000:201.993   CPU_ReadMem(4 bytes @ 0xE000ED88)
T0E00 000:202.282   CPU_WriteMem(4 bytes @ 0xE000ED88)
T0E00 000:202.508   CPU_ReadMem(4 bytes @ 0xE000ED88)
T0E00 000:202.724   CPU_WriteMem(4 bytes @ 0xE000ED88)
T0E00 000:204.826   CoreSight components:
T0E00 000:206.765   ROMTbl[0] @ E00FD000
T0E00 000:206.778   CPU_ReadMem(64 bytes @ 0xE00FD000)
T0E00 000:207.240   CPU_ReadMem(32 bytes @ 0xE00FEFE0)
T0E00 000:209.434   ROMTbl[0][0]: E00FE000, CID: B105100D, PID: 000BB4C8 ROM Table
T0E00 000:211.275   ROMTbl[1] @ E00FE000
T0E00 000:211.288   CPU_ReadMem(64 bytes @ 0xE00FE000)
T0E00 000:211.748   CPU_ReadMem(32 bytes @ 0xE00FFFE0)
T0E00 000:213.947   ROMTbl[1][0]: E00FF000, CID: B105100D, PID: 000BB4C7 ROM Table
T0E00 000:217.769   ROMTbl[2] @ E00FF000
T0E00 000:217.792   CPU_ReadMem(64 bytes @ 0xE00FF000)
T0E00 000:218.273   CPU_ReadMem(32 bytes @ 0xE000EFE0)
T0E00 000:220.749   ROMTbl[2][0]: E000E000, CID: B105E00D, PID: 000BB00C SCS-M7
T0E00 000:220.764   CPU_ReadMem(32 bytes @ 0xE0001FE0)
T0E00 000:223.269   ROMTbl[2][1]: E0001000, CID: B105E00D, PID: 000BB002 DWT
T0E00 000:223.289   CPU_ReadMem(32 bytes @ 0xE0002FE0)
T0E00 000:225.919   ROMTbl[2][2]: E0002000, CID: B105E00D, PID: 000BB00E FPB-M7
T0E00 000:225.936   CPU_ReadMem(32 bytes @ 0xE0000FE0)
T0E00 000:229.316   ROMTbl[2][3]: E0000000, CID: B105E00D, PID: 000BB001 ITM
T0E00 000:229.330   CPU_ReadMem(32 bytes @ 0xE0041FE0)
T0E00 000:232.886   ROMTbl[1][1]: E0041000, CID: B105900D, PID: 001BB975 ETM-M7
T0E00 000:232.899   CPU_ReadMem(32 bytes @ 0xE0042FE0)
T0E00 000:235.165   ROMTbl[1][2]: E0042000, CID: B105900D, PID: 004BB906 CTI
T0E00 000:235.177   CPU_ReadMem(32 bytes @ 0xE0043FE0)
T0E00 000:237.446   ROMTbl[0][1]: E0043000, CID: B105900D, PID: 001BB908 CSTF
T0E00 000:237.460   CPU_ReadMem(4 bytes @ 0xE000ED78)
T0E00 000:240.264   Cache: Separate I- and D-cache.
T0E00 000:240.277   CPU_WriteMem(4 bytes @ 0xE000ED84)
T0E00 000:240.525   CPU_ReadMem(4 bytes @ 0xE000ED80)
T0E00 000:243.322   I-Cache L1: 32 KiB, 512 Sets, 32 Bytes/Line, 2-Way
T0E00 000:243.335   CPU_WriteMem(4 bytes @ 0xE000ED84)
T0E00 000:243.586   CPU_ReadMem(4 bytes @ 0xE000ED80)
T0E00 000:246.758   D-Cache L1: 32 KiB, 256 Sets, 32 Bytes/Line, 4-Way
T0E00 000:246.964 - 179.885ms returns 0x6BA02477
T0E00 000:246.979 JLINK_GetDLLVersion()
T0E00 000:246.983 - 0.007ms returns 75000
T0E00 000:246.990 JLINK_CORE_GetFound()
T0E00 000:246.994 - 0.006ms returns 0xE0100FF
T0E00 000:247.000 JLINK_GetDebugInfo(0x100 = JLINKARM_ROM_TABLE_ADDR_INDEX)
T0E00 000:247.005   Value=0xE00FD000
T0E00 000:247.011 - 0.013ms returns 0
T0E00 000:248.930 JLINK_GetDebugInfo(0x100 = JLINKARM_ROM_TABLE_ADDR_INDEX)
T0E00 000:248.940   Value=0xE00FD000
T0E00 000:248.946 - 0.018ms returns 0
T0E00 000:248.951 JLINK_GetDebugInfo(0x101 = JLINKARM_DEBUG_INFO_ETM_ADDR_INDEX)
T0E00 000:248.956   Value=0xE0041000
T0E00 000:248.962 - 0.012ms returns 0
T0E00 000:248.969 JLINK_ReadMemEx(0xE0041FD0, 0x20 Bytes, Flags = 0x02000004)
T0E00 000:248.986   CPU_ReadMem(32 bytes @ 0xE0041FD0)
T0E00 000:249.334   Data:  04 00 00 00 00 00 00 00 00 00 00 00 00 00 00 00 ...
T0E00 000:249.342 - 0.374ms returns 32 (0x20)
T0E00 000:249.348 JLINK_GetDebugInfo(0x102 = JLINKARM_DEBUG_INFO_MTB_ADDR_INDEX)
T0E00 000:249.353   Value=0x00000000
T0E00 000:249.359 - 0.012ms returns 0
T0E00 000:249.363 JLINK_GetDebugInfo(0x103 = JLINKARM_DEBUG_INFO_TPIU_ADDR_INDEX)
T0E00 000:249.368   Value=0x00000000
T0E00 000:249.374 - 0.012ms returns 0
T0E00 000:249.379 JLINK_GetDebugInfo(0x104 = JLINKARM_DEBUG_INFO_ITM_ADDR_INDEX)
T0E00 000:249.383   Value=0xE0000000
T0E00 000:249.389 - 0.012ms returns 0
T0E00 000:249.394 JLINK_GetDebugInfo(0x105 = JLINKARM_DEBUG_INFO_DWT_ADDR_INDEX)
T0E00 000:249.398   Value=0xE0001000
T0E00 000:249.404 - 0.012ms returns 0
T0E00 000:249.409 JLINK_GetDebugInfo(0x106 = JLINKARM_DEBUG_INFO_FPB_ADDR_INDEX)
T0E00 000:249.413   Value=0xE0002000
T0E00 000:249.419 - 0.012ms returns 0
T0E00 000:249.424 JLINK_GetDebugInfo(0x107 = JLINKARM_DEBUG_INFO_NVIC_ADDR_INDEX)
T0E00 000:249.428   Value=0xE000E000
T0E00 000:249.434 - 0.014ms returns 0
T0E00 000:249.443 JLINK_GetDebugInfo(0x10C = JLINKARM_DEBUG_INFO_DBG_ADDR_INDEX)
T0E00 000:249.448   Value=0xE000EDF0
T0E00 000:249.454 - 0.012ms returns 0
T0E00 000:249.458 JLINK_GetDebugInfo(0x01 = Unknown)
T0E00 000:249.463   Value=0x00000001
T0E00 000:249.469 - 0.012ms returns 0
T0E00 000:249.474 JLINK_ReadMemU32(0xE000ED00, 0x1 Items)
T0E00 000:249.481   CPU_ReadMem(4 bytes @ 0xE000ED00)
T0E00 000:249.698   Data:  72 C2 1F 41
T0E00 000:249.705   Debug reg: CPUID
T0E00 000:249.711 - 0.239ms returns 1 (0x1)
T0E00 000:249.717 JLINK_GetDebugInfo(0x10F = JLINKARM_DEBUG_INFO_HAS_CORTEX_M_SECURITY_EXT_INDEX)
T0E00 000:249.722   Value=0x00000000
T0E00 000:249.728 - 0.012ms returns 0
T0E00 000:249.733 JLINK_HasError()
T0E00 000:249.739 JLINK_SetResetType(JLINKARM_CM3_RESET_TYPE_CORE)
T0E00 000:249.743 - 0.006ms returns JLINKARM_CM3_RESET_TYPE_NORMAL
T0E00 000:249.748 JLINK_Reset()
T0E00 000:249.760   CPU is running
T0E00 000:249.767   CPU_WriteMem(4 bytes @ 0xE000EDF0)
T0E00 000:250.077   CPU is running
T0E00 000:250.085   CPU_WriteMem(4 bytes @ 0xE000EDFC)
T0E00 000:252.197   Reset: Halt core after reset via DEMCR.VC_CORERESET.
T0E00 000:254.520   Reset: Reset device via AIRCR.VECTRESET.
T0E00 000:254.532   CPU is running
T0E00 000:254.540   CPU_WriteMem(4 bytes @ 0xE000ED0C)
T0E00 000:254.790   CPU_ReadMem(4 bytes @ 0xE000EDF0)
T0E00 000:255.084   CPU_ReadMem(4 bytes @ 0xE000EDF0)
T0E00 000:255.308   CPU is running
T0E00 000:255.315   CPU_WriteMem(4 bytes @ 0xE000EDF0)
T0E00 000:255.527   CPU is running
T0E00 000:255.535   CPU_WriteMem(4 bytes @ 0xE000EDFC)
T0E00 000:261.100   CPU_ReadMem(4 bytes @ 0xE000EDF0)
T0E00 000:266.046   AfterResetTarget() start
T0E00 000:266.071    J-Link Script File: Executing AfterResetTarget()
T0E00 000:266.103   CPU_WriteMem(4 bytes @ 0xE000EDF0)
T0E00 000:316.837   CPU_WriteMem(4 bytes @ 0xE000EDF0)
T0E00 000:317.173   CPU_ReadMem(4 bytes @ 0xE000EDF0)
T0E00 000:320.978   Valid application detected. Setting PC / SP manually.
T0E00 000:320.995   CPU_ReadMem(64 bytes @ 0x30002000)
T0E00 000:321.462    -- Updating C cache (64 bytes @ 0x30002000)
T0E00 000:321.470    -- Read from C cache (4 bytes @ 0x30002000)
T0E00 000:321.477    -- Read from C cache (4 bytes @ 0x30002004)
T0E00 000:323.390     PC = 0x30002415
T0E00 000:325.290     SP = 0x20040000
T0E00 000:329.560   Clean & invalidate cached CPU registers
T0E00 000:331.411   AfterResetTarget() end
T0E00 000:331.424   CPU is running
T0E00 000:331.432   CPU_WriteMem(4 bytes @ 0xE0002000)
T0E00 000:331.664   CPU_ReadMem(4 bytes @ 0xE000EDFC)
T0E00 000:331.873   CPU_WriteMem(4 bytes @ 0xE000EDFC)
T0E00 000:332.107   CPU_ReadMem(4 bytes @ 0xE0001000)
T0E00 000:332.307   CPU_WriteMem(4 bytes @ 0xE0001000)
T0E00 000:334.251 - 84.515ms
T0E00 000:334.321 JLINK_Halt()
T0E00 000:334.330 - 0.013ms returns 0x00
T0E00 000:334.341 JLINK_ReadMemU32(0xE000EDF0, 0x1 Items)
T0E00 000:334.358   CPU_ReadMem(4 bytes @ 0xE000EDF0)
T0E00 000:334.597   Data:  03 00 03 00
T0E00 000:334.611   Debug reg: DHCSR
T0E00 000:334.621 - 0.284ms returns 1 (0x1)
T0E00 000:334.635 JLINK_WriteU32_64(0xE000EDF0, 0xA05F0003)
T0E00 000:334.644   Debug reg: DHCSR
T0E00 000:334.926   CPU_WriteMem(4 bytes @ 0xE000EDF0)
T0E00 000:335.224 - 0.595ms returns 0 (0x00000000)
T0E00 000:335.235 JLINK_WriteU32_64(0xE000EDFC, 0x01000000)
T0E00 000:335.241   Debug reg: DEMCR
T0E00 000:335.251   CPU_WriteMem(4 bytes @ 0xE000EDFC)
T0E00 000:335.472 - 0.239ms returns 0 (0x00000000)
T0E00 000:343.772 JLINK_GetHWStatus(...)
T0E00 000:343.902 - 0.133ms returns 0
T0E00 000:349.789 JLINK_GetNumBPUnits(Type = 0xFFFFFF00)
T0E00 000:349.803 - 0.016ms returns 0x08
T0E00 000:349.810 JLINK_GetNumBPUnits(Type = 0xF0)
T0E00 000:349.814 - 0.006ms returns 0x2000
T0E00 000:349.819 JLINK_GetNumWPUnits()
T0E00 000:349.823 - 0.006ms returns 4
T0E00 000:357.941 JLINK_GetSpeed()
T0E00 000:357.962 - 0.025ms returns 4000
T0E00 000:362.038 JLINK_ReadMemU32(0xE000E004, 0x1 Items)
T0E00 000:362.059   CPU_ReadMem(4 bytes @ 0xE000E004)
T0E00 000:362.319   Data:  07 00 00 00
T0E00 000:362.339 - 0.305ms returns 1 (0x1)
T0E00 000:362.352 JLINK_ReadMemU32(0xE000E004, 0x1 Items)
T0E00 000:362.367   CPU_ReadMem(4 bytes @ 0xE000E004)
T0E00 000:362.601   Data:  07 00 00 00
T0E00 000:362.614 - 0.266ms returns 1 (0x1)
T0E00 000:362.625 JLINK_WriteMemEx(0xE0001000, 0x0000001C Bytes, Flags = 0x02000004)
T0E00 000:362.634   Data:  01 00 00 00 00 00 00 00 00 00 00 00 00 00 00 00 ...
T0E00 000:362.653   CPU_WriteMem(28 bytes @ 0xE0001000)
T0E00 000:362.983 - 0.362ms returns 0x1C
T0E00 000:362.999 JLINK_Halt()
T0E00 000:363.006 - 0.011ms returns 0x00
T0E00 000:363.016 JLINK_IsHalted()
T0E00 000:363.025 - 0.012ms returns TRUE
T0E00 000:367.738 JLINK_WriteMem(0x20000000, 0x2C10 Bytes, ...)
T0E00 000:367.747   Data:  00 BE 0A E0 0D 78 2D 06 68 40 08 24 40 00 00 D3 ...
T0E00 000:367.903   CPU_WriteMem(11280 bytes @ 0x20000000)
T0E00 000:401.984 - 34.265ms returns 0x2C10
T0E00 000:402.055 JLINK_HasError()
T0E00 000:402.069 JLINK_WriteReg(R0, 0x30000000)
T0E00 000:402.083 - 0.018ms returns 0
T0E00 000:402.093 JLINK_WriteReg(R1, 0x00B71B00)
T0E00 000:402.102 - 0.012ms returns 0
T0E00 000:402.112 JLINK_WriteReg(R2, 0x00000001)
T0E00 000:402.120 - 0.012ms returns 0
T0E00 000:402.129 JLINK_WriteReg(R3, 0x00000000)
T0E00 000:402.137 - 0.012ms returns 0
T0E00 000:402.147 JLINK_WriteReg(R4, 0x00000000)
T0E00 000:402.154 - 0.011ms returns 0
T0E00 000:402.164 JLINK_WriteReg(R5, 0x00000000)
T0E00 000:402.172 - 0.012ms returns 0
T0E00 000:402.181 JLINK_WriteReg(R6, 0x00000000)
T0E00 000:402.189 - 0.011ms returns 0
T0E00 000:402.198 JLINK_WriteReg(R7, 0x00000000)
T0E00 000:402.206 - 0.011ms returns 0
T0E00 000:402.216 JLINK_WriteReg(R8, 0x00000000)
T0E00 000:402.231 - 0.019ms returns 0
T0E00 000:402.241 JLINK_WriteReg(R9, 0x20002A00)
T0E00 000:402.249 - 0.011ms returns 0
T0E00 000:402.258 JLINK_WriteReg(R10, 0x00000000)
T0E00 000:402.266 - 0.011ms returns 0
T0E00 000:402.275 JLINK_WriteReg(R11, 0x00000000)
T0E00 000:402.283 - 0.012ms returns 0
T0E00 000:402.293 JLINK_WriteReg(R12, 0x00000000)
T0E00 000:402.301 - 0.012ms returns 0
T0E00 000:402.310 JLINK_WriteReg(R13 (SP), 0x20008000)
T0E00 000:402.319 - 0.012ms returns 0
T0E00 000:402.329 JLINK_WriteReg(R14, 0x20000001)
T0E00 000:402.337 - 0.012ms returns 0
T0E00 000:402.346 JLINK_WriteReg(R15 (PC), 0x200000B0)
T0E00 000:402.357 - 0.014ms returns 0
T0E00 000:402.366 JLINK_WriteReg(XPSR, 0x01000000)
T0E00 000:402.374 - 0.012ms returns 0
T0E00 000:402.384 JLINK_WriteReg(MSP, 0x20008000)
T0E00 000:402.392 - 0.011ms returns 0
T0E00 000:402.401 JLINK_WriteReg(PSP, 0x20008000)
T0E00 000:402.409 - 0.011ms returns 0
T0E00 000:402.418 JLINK_WriteReg(CFBP, 0x00000000)
T0E00 000:402.426 - 0.011ms returns 0
T0E00 000:402.435 JLINK_SetBPEx(Addr = 0x20000000, Type = 0xFFFFFFF2)
T0E00 000:402.446 - 0.014ms returns 0x00000001
T0E00 000:402.455 JLINK_Go()
T0E00 000:402.470   CPU_WriteMem(4 bytes @ 0xE0002000)
T0E00 000:402.747   CPU_ReadMem(4 bytes @ 0xE0001000)
T0E00 000:402.976   CPU_WriteMem(4 bytes @ 0xE0002008)
T0E00 000:402.990   CPU_WriteMem(4 bytes @ 0xE000200C)
T0E00 000:403.001   CPU_WriteMem(4 bytes @ 0xE0002010)
T0E00 000:403.013   CPU_WriteMem(4 bytes @ 0xE0002014)
T0E00 000:403.021   CPU_WriteMem(4 bytes @ 0xE0002018)
T0E00 000:403.028   CPU_WriteMem(4 bytes @ 0xE000201C)
T0E00 000:403.034   CPU_WriteMem(4 bytes @ 0xE0002020)
T0E00 000:403.040   CPU_WriteMem(4 bytes @ 0xE0002024)
T0E00 000:404.220   CPU_WriteMem(4 bytes @ 0xE0001004)
T0E00 000:406.252 - 3.806ms
T0E00 000:406.270 JLINK_IsHalted()
T0E00 000:406.470 - 0.205ms returns FALSE
T0E00 000:406.482 JLINK_HasError()
T0E00 000:419.143 JLINK_IsHalted()
T0E00 000:420.985 - 1.849ms returns TRUE
T0E00 000:421.002 JLINK_ReadReg(R15 (PC))
T0E00 000:421.014 - 0.017ms returns 0x20000000
T0E00 000:421.026 JLINK_ClrBPEx(BPHandle = 0x00000001)
T0E00 000:421.036 - 0.014ms returns 0x00
T0E00 000:421.047 JLINK_ReadReg(R0)
T0E00 000:421.057 - 0.014ms returns 0x00000000
T0E00 000:421.896 JLINK_HasError()
T0E00 000:421.916 JLINK_WriteReg(R0, 0x30000000)
T0E00 000:422.029 - 0.117ms returns 0
T0E00 000:422.042 JLINK_WriteReg(R1, 0x00010000)
T0E00 000:422.052 - 0.014ms returns 0
T0E00 000:422.062 JLINK_WriteReg(R2, 0x000000FF)
T0E00 000:422.071 - 0.013ms returns 0
T0E00 000:422.082 JLINK_WriteReg(R3, 0x00000000)
T0E00 000:422.091 - 0.013ms returns 0
T0E00 000:422.101 JLINK_WriteReg(R4, 0x00000000)
T0E00 000:422.110 - 0.013ms returns 0
T0E00 000:422.121 JLINK_WriteReg(R5, 0x00000000)
T0E00 000:422.130 - 0.013ms returns 0
T0E00 000:422.140 JLINK_WriteReg(R6, 0x00000000)
T0E00 000:422.149 - 0.013ms returns 0
T0E00 000:422.159 JLINK_WriteReg(R7, 0x00000000)
T0E00 000:422.169 - 0.013ms returns 0
T0E00 000:422.179 JLINK_WriteReg(R8, 0x00000000)
T0E00 000:422.188 - 0.013ms returns 0
T0E00 000:422.198 JLINK_WriteReg(R9, 0x20002A00)
T0E00 000:422.207 - 0.013ms returns 0
T0E00 000:422.218 JLINK_WriteReg(R10, 0x00000000)
T0E00 000:422.227 - 0.013ms returns 0
T0E00 000:422.237 JLINK_WriteReg(R11, 0x00000000)
T0E00 000:422.246 - 0.013ms returns 0
T0E00 000:422.257 JLINK_WriteReg(R12, 0x00000000)
T0E00 000:422.266 - 0.013ms returns 0
T0E00 000:422.276 JLINK_WriteReg(R13 (SP), 0x20008000)
T0E00 000:422.286 - 0.014ms returns 0
T0E00 000:422.297 JLINK_WriteReg(R14, 0x20000001)
T0E00 000:422.306 - 0.014ms returns 0
T0E00 000:422.314 JLINK_WriteReg(R15 (PC), 0x20000020)
T0E00 000:422.320 - 0.008ms returns 0
T0E00 000:422.326 JLINK_WriteReg(XPSR, 0x01000000)
T0E00 000:422.332 - 0.008ms returns 0
T0E00 000:422.338 JLINK_WriteReg(MSP, 0x20008000)
T0E00 000:422.343 - 0.008ms returns 0
T0E00 000:422.349 JLINK_WriteReg(PSP, 0x20008000)
T0E00 000:422.355 - 0.008ms returns 0
T0E00 000:422.361 JLINK_WriteReg(CFBP, 0x00000000)
T0E00 000:422.366 - 0.008ms returns 0
T0E00 000:422.373 JLINK_SetBPEx(Addr = 0x20000000, Type = 0xFFFFFFF2)
T0E00 000:422.379 - 0.009ms returns 0x00000002
T0E00 000:422.386 JLINK_Go()
T0E00 000:422.397   CPU_WriteMem(4 bytes @ 0xE0002000)
T0E00 000:422.632   CPU_ReadMem(4 bytes @ 0xE0001000)
T0E00 000:424.646 - 2.267ms
T0E00 000:424.661 JLINK_IsHalted()
T0E00 000:424.903 - 0.256ms returns FALSE
T0E00 000:424.928 JLINK_HasError()
T0E00 000:426.687 JLINK_IsHalted()
T0E00 000:428.640 - 1.961ms returns TRUE
T0E00 000:428.657 JLINK_ReadReg(R15 (PC))
T0E00 000:428.665 - 0.010ms returns 0x20000000
T0E00 000:428.673 JLINK_ClrBPEx(BPHandle = 0x00000002)
T0E00 000:428.679 - 0.009ms returns 0x00
T0E00 000:428.687 JLINK_ReadReg(R0)
T0E00 000:428.693 - 0.008ms returns 0x00000001
T0E00 000:428.701 JLINK_HasError()
T0E00 000:428.708 JLINK_WriteReg(R0, 0x30000000)
T0E00 000:428.714 - 0.008ms returns 0
T0E00 000:428.722 JLINK_WriteReg(R1, 0x00010000)
T0E00 000:428.728 - 0.008ms returns 0
T0E00 000:428.737 JLINK_WriteReg(R2, 0x000000FF)
T0E00 000:428.743 - 0.008ms returns 0
T0E00 000:428.750 JLINK_WriteReg(R3, 0x00000000)
T0E00 000:428.756 - 0.008ms returns 0
T0E00 000:428.763 JLINK_WriteReg(R4, 0x00000000)
T0E00 000:428.769 - 0.008ms returns 0
T0E00 000:428.778 JLINK_WriteReg(R5, 0x00000000)
T0E00 000:428.785 - 0.009ms returns 0
T0E00 000:428.793 JLINK_WriteReg(R6, 0x00000000)
T0E00 000:428.798 - 0.008ms returns 0
T0E00 000:428.806 JLINK_WriteReg(R7, 0x00000000)
T0E00 000:428.811 - 0.008ms returns 0
T0E00 000:428.818 JLINK_WriteReg(R8, 0x00000000)
T0E00 000:428.824 - 0.008ms returns 0
T0E00 000:428.832 JLINK_WriteReg(R9, 0x20002A00)
T0E00 000:428.837 - 0.008ms returns 0
T0E00 000:428.844 JLINK_WriteReg(R10, 0x00000000)
T0E00 000:428.850 - 0.008ms returns 0
T0E00 000:428.857 JLINK_WriteReg(R11, 0x00000000)
T0E00 000:428.863 - 0.008ms returns 0
T0E00 000:428.870 JLINK_WriteReg(R12, 0x00000000)
T0E00 000:428.876 - 0.008ms returns 0
T0E00 000:428.883 JLINK_WriteReg(R13 (SP), 0x20008000)
T0E00 000:428.889 - 0.008ms returns 0
T0E00 000:428.896 JLINK_WriteReg(R14, 0x20000001)
T0E00 000:428.902 - 0.008ms returns 0
T0E00 000:428.909 JLINK_WriteReg(R15 (PC), 0x20000192)
T0E00 000:428.915 - 0.008ms returns 0
T0E00 000:428.922 JLINK_WriteReg(XPSR, 0x01000000)
T0E00 000:428.928 - 0.011ms returns 0
T0E00 000:428.940 JLINK_WriteReg(MSP, 0x20008000)
T0E00 000:428.946 - 0.008ms returns 0
T0E00 000:428.954 JLINK_WriteReg(PSP, 0x20008000)
T0E00 000:428.959 - 0.008ms returns 0
T0E00 000:428.966 JLINK_WriteReg(CFBP, 0x00000000)
T0E00 000:428.972 - 0.008ms returns 0
T0E00 000:428.980 JLINK_SetBPEx(Addr = 0x20000000, Type = 0xFFFFFFF2)
T0E00 000:428.986 - 0.009ms returns 0x00000003
T0E00 000:428.994 JLINK_Go()
T0E00 000:429.004   CPU_WriteMem(4 bytes @ 0xE0002000)
T0E00 000:429.239   CPU_ReadMem(4 bytes @ 0xE0001000)
T0E00 000:431.286 - 2.305ms
T0E00 000:431.310 JLINK_IsHalted()
T0E00 000:431.528 - 0.222ms returns FALSE
T0E00 000:431.543 JLINK_HasError()
T0E00 000:432.790 JLINK_IsHalted()
T0E00 000:433.081 - 0.297ms returns FALSE
T0E00 000:433.095 JLINK_HasError()
T0E00 000:434.794 JLINK_IsHalted()
T0E00 000:435.086 - 0.302ms returns FALSE
T0E00 000:435.105 JLINK_HasError()
T0E00 000:436.801 JLINK_IsHalted()
T0E00 000:437.079 - 0.282ms returns FALSE
T0E00 000:437.091 JLINK_HasError()
T0E00 000:438.302 JLINK_IsHalted()
T0E00 000:438.528 - 0.231ms returns FALSE
T0E00 000:438.540 JLINK_HasError()
T0E00 000:440.301 JLINK_IsHalted()
T0E00 000:440.516 - 0.220ms returns FALSE
T0E00 000:440.528 JLINK_HasError()
T0E00 000:442.308 JLINK_IsHalted()
T0E00 000:442.546 - 0.243ms returns FALSE
T0E00 000:442.558 JLINK_HasError()
T0E00 000:445.317 JLINK_IsHalted()
T0E00 000:445.557 - 0.246ms returns FALSE
T0E00 000:445.571 JLINK_HasError()
T0E00 000:446.822 JLINK_IsHalted()
T0E00 000:447.079 - 0.261ms returns FALSE
T0E00 000:447.091 JLINK_HasError()
T0E00 000:448.847 JLINK_IsHalted()
T0E00 000:449.079 - 0.236ms returns FALSE
T0E00 000:449.091 JLINK_HasError()
T0E00 000:450.851 JLINK_IsHalted()
T0E00 000:451.079 - 0.232ms returns FALSE
T0E00 000:451.091 JLINK_HasError()
T0E00 000:452.856 JLINK_IsHalted()
T0E00 000:453.079 - 0.227ms returns FALSE
T0E00 000:453.091 JLINK_HasError()
T0E00 000:454.884 JLINK_IsHalted()
T0E00 000:455.130 - 0.255ms returns FALSE
T0E00 000:455.148 JLINK_HasError()
T0E00 000:456.866 JLINK_IsHalted()
T0E00 000:457.117 - 0.257ms returns FALSE
T0E00 000:457.131 JLINK_HasError()
T0E00 000:458.373 JLINK_IsHalted()
T0E00 000:458.616 - 0.248ms returns FALSE
T0E00 000:458.630 JLINK_HasError()
T0E00 000:462.378 JLINK_IsHalted()
T0E00 000:462.618 - 0.246ms returns FALSE
T0E00 000:462.631 JLINK_HasError()
T0E00 000:464.382 JLINK_IsHalted()
T0E00 000:464.602 - 0.225ms returns FALSE
T0E00 000:464.614 JLINK_HasError()
T0E00 000:466.893 JLINK_IsHalted()
T0E00 000:467.141 - 0.253ms returns FALSE
T0E00 000:467.155 JLINK_HasError()
T0E00 000:468.915 JLINK_IsHalted()
T0E00 000:469.130 - 0.217ms returns FALSE
T0E00 000:469.138 JLINK_HasError()
T0E00 000:470.921 JLINK_IsHalted()
T0E00 000:471.140 - 0.224ms returns FALSE
T0E00 000:471.153 JLINK_HasError()
T0E00 000:472.928 JLINK_IsHalted()
T0E00 000:473.226 - 0.303ms returns FALSE
T0E00 000:473.238 JLINK_HasError()
T0E00 000:474.934 JLINK_IsHalted()
T0E00 000:475.211 - 0.286ms returns FALSE
T0E00 000:475.228 JLINK_HasError()
T0E00 000:476.438 JLINK_IsHalted()
T0E00 000:476.663 - 0.230ms returns FALSE
T0E00 000:476.675 JLINK_HasError()
T0E00 000:478.448 JLINK_IsHalted()
T0E00 000:478.664 - 0.222ms returns FALSE
T0E00 000:478.677 JLINK_HasError()
T0E00 000:480.447 JLINK_IsHalted()
T0E00 000:480.668 - 0.226ms returns FALSE
T0E00 000:480.680 JLINK_HasError()
T0E00 000:482.452 JLINK_IsHalted()
T0E00 000:482.665 - 0.218ms returns FALSE
T0E00 000:482.677 JLINK_HasError()
T0E00 000:484.457 JLINK_IsHalted()
T0E00 000:484.676 - 0.224ms returns FALSE
T0E00 000:484.688 JLINK_HasError()
T0E00 000:486.462 JLINK_IsHalted()
T0E00 000:486.666 - 0.207ms returns FALSE
T0E00 000:486.673 JLINK_HasError()
T0E00 000:487.996 JLINK_IsHalted()
T0E00 000:488.272 - 0.285ms returns FALSE
T0E00 000:488.289 JLINK_HasError()
T0E00 000:489.964 JLINK_IsHalted()
T0E00 000:490.207 - 0.249ms returns FALSE
T0E00 000:490.219 JLINK_HasError()
T0E00 000:491.973 JLINK_IsHalted()
T0E00 000:492.211 - 0.243ms returns FALSE
T0E00 000:492.227 JLINK_HasError()
T0E00 000:493.977 JLINK_IsHalted()
T0E00 000:494.205 - 0.233ms returns FALSE
T0E00 000:494.217 JLINK_HasError()
T0E00 000:496.484 JLINK_IsHalted()
T0E00 000:496.707 - 0.228ms returns FALSE
T0E00 000:496.720 JLINK_HasError()
T0E00 000:497.999 JLINK_IsHalted()
T0E00 000:498.225 - 0.230ms returns FALSE
T0E00 000:498.237 JLINK_HasError()
T0E00 000:499.998 JLINK_IsHalted()
T0E00 000:500.216 - 0.223ms returns FALSE
T0E00 000:500.228 JLINK_HasError()
T0E00 000:502.008 JLINK_IsHalted()
T0E00 000:502.232 - 0.228ms returns FALSE
T0E00 000:502.243 JLINK_HasError()
T0E00 000:504.008 JLINK_IsHalted()
T0E00 000:504.226 - 0.222ms returns FALSE
T0E00 000:504.238 JLINK_HasError()
T0E00 000:506.015 JLINK_IsHalted()
T0E00 000:506.249 - 0.238ms returns FALSE
T0E00 000:506.261 JLINK_HasError()
T0E00 000:509.023 JLINK_IsHalted()
T0E00 000:509.259 - 0.241ms returns FALSE
T0E00 000:509.271 JLINK_HasError()
T0E00 000:511.027 JLINK_IsHalted()
T0E00 000:511.244 - 0.222ms returns FALSE
T0E00 000:511.256 JLINK_HasError()
T0E00 000:513.033 JLINK_IsHalted()
T0E00 000:513.255 - 0.227ms returns FALSE
T0E00 000:513.267 JLINK_HasError()
T0E00 000:515.040 JLINK_IsHalted()
T0E00 000:515.276 - 0.242ms returns FALSE
T0E00 000:515.289 JLINK_HasError()
T0E00 000:517.059 JLINK_IsHalted()
T0E00 000:517.277 - 0.223ms returns FALSE
T0E00 000:517.288 JLINK_HasError()
T0E00 000:519.051 JLINK_IsHalted()
T0E00 000:519.273 - 0.226ms returns FALSE
T0E00 000:519.284 JLINK_HasError()
T0E00 000:521.053 JLINK_IsHalted()
T0E00 000:521.295 - 0.254ms returns FALSE
T0E00 000:521.318 JLINK_HasError()
T0E00 000:523.061 JLINK_IsHalted()
T0E00 000:523.294 - 0.238ms returns FALSE
T0E00 000:523.307 JLINK_HasError()
T0E00 000:526.065 JLINK_IsHalted()
T0E00 000:526.286 - 0.223ms returns FALSE
T0E00 000:526.293 JLINK_HasError()
T0E00 000:528.073 JLINK_IsHalted()
T0E00 000:528.294 - 0.226ms returns FALSE
T0E00 000:528.305 JLINK_HasError()
T0E00 000:530.079 JLINK_IsHalted()
T0E00 000:530.312 - 0.238ms returns FALSE
T0E00 000:530.324 JLINK_HasError()
T0E00 000:533.083 JLINK_IsHalted()
T0E00 000:533.322 - 0.243ms returns FALSE
T0E00 000:533.330 JLINK_HasError()
T0E00 000:535.091 JLINK_IsHalted()
T0E00 000:535.327 - 0.240ms returns FALSE
T0E00 000:535.339 JLINK_HasError()
T0E00 000:537.098 JLINK_IsHalted()
T0E00 000:537.331 - 0.241ms returns FALSE
T0E00 000:537.347 JLINK_HasError()
T0E00 000:541.106 JLINK_IsHalted()
T0E00 000:541.348 - 0.247ms returns FALSE
T0E00 000:541.361 JLINK_HasError()
T0E00 000:543.111 JLINK_IsHalted()
T0E00 000:544.889 - 1.790ms returns TRUE
T0E00 000:544.910 JLINK_ReadReg(R15 (PC))
T0E00 000:544.922 - 0.016ms returns 0x20000000
T0E00 000:544.932 JLINK_ClrBPEx(BPHandle = 0x00000003)
T0E00 000:544.941 - 0.013ms returns 0x00
T0E00 000:544.951 JLINK_ReadReg(R0)
T0E00 000:544.962 - 0.014ms returns 0x00000000
T0E00 000:546.105 JLINK_HasError()
T0E00 000:546.119 JLINK_WriteReg(R0, 0x00000001)
T0E00 000:546.127 - 0.010ms returns 0
T0E00 000:546.133 JLINK_WriteReg(R1, 0x00010000)
T0E00 000:546.138 - 0.007ms returns 0
T0E00 000:546.144 JLINK_WriteReg(R2, 0x000000FF)
T0E00 000:546.150 - 0.008ms returns 0
T0E00 000:546.155 JLINK_WriteReg(R3, 0x00000000)
T0E00 000:546.160 - 0.008ms returns 0
T0E00 000:546.169 JLINK_WriteReg(R4, 0x00000000)
T0E00 000:546.174 - 0.007ms returns 0
T0E00 000:546.180 JLINK_WriteReg(R5, 0x00000000)
T0E00 000:546.185 - 0.007ms returns 0
T0E00 000:546.191 JLINK_WriteReg(R6, 0x00000000)
T0E00 000:546.196 - 0.007ms returns 0
T0E00 000:546.202 JLINK_WriteReg(R7, 0x00000000)
T0E00 000:546.208 - 0.007ms returns 0
T0E00 000:546.213 JLINK_WriteReg(R8, 0x00000000)
T0E00 000:546.219 - 0.007ms returns 0
T0E00 000:546.225 JLINK_WriteReg(R9, 0x20002A00)
T0E00 000:546.230 - 0.008ms returns 0
T0E00 000:546.236 JLINK_WriteReg(R10, 0x00000000)
T0E00 000:546.240 - 0.006ms returns 0
T0E00 000:546.246 JLINK_WriteReg(R11, 0x00000000)
T0E00 000:546.251 - 0.006ms returns 0
T0E00 000:546.256 JLINK_WriteReg(R12, 0x00000000)
T0E00 000:546.261 - 0.011ms returns 0
T0E00 000:546.274 JLINK_WriteReg(R13 (SP), 0x20008000)
T0E00 000:546.281 - 0.008ms returns 0
T0E00 000:546.287 JLINK_WriteReg(R14, 0x20000001)
T0E00 000:546.292 - 0.007ms returns 0
T0E00 000:546.298 JLINK_WriteReg(R15 (PC), 0x2000017A)
T0E00 000:546.304 - 0.009ms returns 0
T0E00 000:546.312 JLINK_WriteReg(XPSR, 0x01000000)
T0E00 000:546.317 - 0.007ms returns 0
T0E00 000:546.322 JLINK_WriteReg(MSP, 0x20008000)
T0E00 000:546.327 - 0.008ms returns 0
T0E00 000:546.333 JLINK_WriteReg(PSP, 0x20008000)
T0E00 000:546.338 - 0.007ms returns 0
T0E00 000:546.344 JLINK_WriteReg(CFBP, 0x00000000)
T0E00 000:546.349 - 0.007ms returns 0
T0E00 000:546.356 JLINK_SetBPEx(Addr = 0x20000000, Type = 0xFFFFFFF2)
T0E00 000:546.364 - 0.010ms returns 0x00000004
T0E00 000:546.370 JLINK_Go()
T0E00 000:546.384   CPU_WriteMem(4 bytes @ 0xE0002000)
T0E00 000:546.612   CPU_ReadMem(4 bytes @ 0xE0001000)
T0E00 000:548.687 - 2.330ms
T0E00 000:548.710 JLINK_IsHalted()
T0E00 000:550.460 - 1.757ms returns TRUE
T0E00 000:550.472 JLINK_ReadReg(R15 (PC))
T0E00 000:550.478 - 0.008ms returns 0x20000000
T0E00 000:550.484 JLINK_ClrBPEx(BPHandle = 0x00000004)
T0E00 000:550.489 - 0.007ms returns 0x00
T0E00 000:550.494 JLINK_ReadReg(R0)
T0E00 000:550.498 - 0.006ms returns 0x00000000
T0E00 000:609.602 JLINK_WriteMem(0x20000000, 0x2C10 Bytes, ...)
T0E00 000:609.617   Data:  00 BE 0A E0 0D 78 2D 06 68 40 08 24 40 00 00 D3 ...
T0E00 000:609.638   CPU_WriteMem(11280 bytes @ 0x20000000)
T0E00 000:643.658 - 34.076ms returns 0x2C10
T0E00 000:643.729 JLINK_HasError()
T0E00 000:643.743 JLINK_WriteReg(R0, 0x30000000)
T0E00 000:643.757 - 0.018ms returns 0
T0E00 000:643.767 JLINK_WriteReg(R1, 0x00B71B00)
T0E00 000:643.776 - 0.013ms returns 0
T0E00 000:643.785 JLINK_WriteReg(R2, 0x00000002)
T0E00 000:643.793 - 0.012ms returns 0
T0E00 000:643.802 JLINK_WriteReg(R3, 0x00000000)
T0E00 000:643.811 - 0.012ms returns 0
T0E00 000:643.820 JLINK_WriteReg(R4, 0x00000000)
T0E00 000:643.828 - 0.011ms returns 0
T0E00 000:643.837 JLINK_WriteReg(R5, 0x00000000)
T0E00 000:643.845 - 0.011ms returns 0
T0E00 000:643.854 JLINK_WriteReg(R6, 0x00000000)
T0E00 000:643.862 - 0.011ms returns 0
T0E00 000:643.871 JLINK_WriteReg(R7, 0x00000000)
T0E00 000:643.879 - 0.011ms returns 0
T0E00 000:643.888 JLINK_WriteReg(R8, 0x00000000)
T0E00 000:643.896 - 0.011ms returns 0
T0E00 000:643.906 JLINK_WriteReg(R9, 0x20002A00)
T0E00 000:643.914 - 0.011ms returns 0
T0E00 000:643.923 JLINK_WriteReg(R10, 0x00000000)
T0E00 000:643.931 - 0.011ms returns 0
T0E00 000:643.940 JLINK_WriteReg(R11, 0x00000000)
T0E00 000:643.948 - 0.011ms returns 0
T0E00 000:643.957 JLINK_WriteReg(R12, 0x00000000)
T0E00 000:643.965 - 0.011ms returns 0
T0E00 000:643.974 JLINK_WriteReg(R13 (SP), 0x20008000)
T0E00 000:643.983 - 0.012ms returns 0
T0E00 000:643.992 JLINK_WriteReg(R14, 0x20000001)
T0E00 000:644.000 - 0.011ms returns 0
T0E00 000:644.009 JLINK_WriteReg(R15 (PC), 0x200000B0)
T0E00 000:644.017 - 0.012ms returns 0
T0E00 000:644.026 JLINK_WriteReg(XPSR, 0x01000000)
T0E00 000:644.035 - 0.012ms returns 0
T0E00 000:644.044 JLINK_WriteReg(MSP, 0x20008000)
T0E00 000:644.052 - 0.011ms returns 0
T0E00 000:644.061 JLINK_WriteReg(PSP, 0x20008000)
T0E00 000:644.069 - 0.012ms returns 0
T0E00 000:644.078 JLINK_WriteReg(CFBP, 0x00000000)
T0E00 000:644.086 - 0.011ms returns 0
T0E00 000:644.096 JLINK_SetBPEx(Addr = 0x20000000, Type = 0xFFFFFFF2)
T0E00 000:644.106 - 0.014ms returns 0x00000005
T0E00 000:644.116 JLINK_Go()
T0E00 000:644.130   CPU_WriteMem(4 bytes @ 0xE0002000)
T0E00 000:644.399   CPU_ReadMem(4 bytes @ 0xE0001000)
T0E00 000:646.477 - 2.369ms
T0E00 000:646.490 JLINK_IsHalted()
T0E00 000:646.698 - 0.219ms returns FALSE
T0E00 000:646.714 JLINK_HasError()
T0E00 000:650.683 JLINK_IsHalted()
T0E00 000:652.461 - 1.785ms returns TRUE
T0E00 000:652.476 JLINK_ReadReg(R15 (PC))
T0E00 000:652.486 - 0.014ms returns 0x20000000
T0E00 000:652.496 JLINK_ClrBPEx(BPHandle = 0x00000005)
T0E00 000:652.505 - 0.012ms returns 0x00
T0E00 000:652.515 JLINK_ReadReg(R0)
T0E00 000:652.580 - 0.069ms returns 0x00000000
T0E00 000:653.050 JLINK_WriteMem(0x20002C14, 0x100 Bytes, ...)
T0E00 000:653.065   Data:  46 43 46 42 00 04 01 56 00 00 00 00 01 03 03 00 ...
T0E00 000:653.089   CPU_WriteMem(256 bytes @ 0x20002C14)
T0E00 000:654.241 - 1.201ms returns 0x100
T0E00 000:654.261 JLINK_HasError()
T0E00 000:654.271 JLINK_WriteReg(R0, 0x30000400)
T0E00 000:654.283 - 0.016ms returns 0
T0E00 000:654.293 JLINK_WriteReg(R1, 0x00000100)
T0E00 000:654.302 - 0.012ms returns 0
T0E00 000:654.311 JLINK_WriteReg(R2, 0x20002C14)
T0E00 000:654.320 - 0.012ms returns 0
T0E00 000:654.329 JLINK_WriteReg(R3, 0x00000000)
T0E00 000:654.337 - 0.013ms returns 0
T0E00 000:654.348 JLINK_WriteReg(R4, 0x00000000)
T0E00 000:654.356 - 0.012ms returns 0
T0E00 000:654.365 JLINK_WriteReg(R5, 0x00000000)
T0E00 000:654.373 - 0.011ms returns 0
T0E00 000:654.383 JLINK_WriteReg(R6, 0x00000000)
T0E00 000:654.391 - 0.011ms returns 0
T0E00 000:654.400 JLINK_WriteReg(R7, 0x00000000)
T0E00 000:654.408 - 0.011ms returns 0
T0E00 000:654.417 JLINK_WriteReg(R8, 0x00000000)
T0E00 000:654.425 - 0.011ms returns 0
T0E00 000:654.434 JLINK_WriteReg(R9, 0x20002A00)
T0E00 000:654.442 - 0.011ms returns 0
T0E00 000:654.451 JLINK_WriteReg(R10, 0x00000000)
T0E00 000:654.459 - 0.012ms returns 0
T0E00 000:654.469 JLINK_WriteReg(R11, 0x00000000)
T0E00 000:654.477 - 0.011ms returns 0
T0E00 000:654.486 JLINK_WriteReg(R12, 0x00000000)
T0E00 000:654.494 - 0.012ms returns 0
T0E00 000:654.504 JLINK_WriteReg(R13 (SP), 0x20008000)
T0E00 000:654.513 - 0.012ms returns 0
T0E00 000:654.522 JLINK_WriteReg(R14, 0x20000001)
T0E00 000:654.530 - 0.012ms returns 0
T0E00 000:654.539 JLINK_WriteReg(R15 (PC), 0x200001B0)
T0E00 000:654.547 - 0.012ms returns 0
T0E00 000:654.557 JLINK_WriteReg(XPSR, 0x01000000)
T0E00 000:654.565 - 0.012ms returns 0
T0E00 000:654.574 JLINK_WriteReg(MSP, 0x20008000)
T0E00 000:654.582 - 0.012ms returns 0
T0E00 000:654.591 JLINK_WriteReg(PSP, 0x20008000)
T0E00 000:654.599 - 0.011ms returns 0
T0E00 000:654.608 JLINK_WriteReg(CFBP, 0x00000000)
T0E00 000:654.616 - 0.011ms returns 0
T0E00 000:654.626 JLINK_SetBPEx(Addr = 0x20000000, Type = 0xFFFFFFF2)
T0E00 000:654.635 - 0.013ms returns 0x00000006
T0E00 000:654.644 JLINK_Go()
T0E00 000:654.656   CPU_WriteMem(4 bytes @ 0xE0002000)
T0E00 000:654.948   CPU_ReadMem(4 bytes @ 0xE0001000)
T0E00 000:657.083 - 2.450ms
T0E00 000:657.100 JLINK_IsHalted()
T0E00 000:657.306 - 0.209ms returns FALSE
T0E00 000:657.313 JLINK_HasError()
T0E00 000:660.709 JLINK_IsHalted()
T0E00 000:662.560 - 1.861ms returns TRUE
T0E00 000:662.578 JLINK_ReadReg(R15 (PC))
T0E00 000:662.589 - 0.015ms returns 0x20000000
T0E00 000:662.600 JLINK_ClrBPEx(BPHandle = 0x00000006)
T0E00 000:662.608 - 0.012ms returns 0x00
T0E00 000:662.618 JLINK_ReadReg(R0)
T0E00 000:662.626 - 0.012ms returns 0x00000000
T0E00 000:663.480 JLINK_WriteMem(0x20002C14, 0x100 Bytes, ...)
T0E00 000:663.488   Data:  D8 04 18 08 00 00 00 00 00 00 00 00 00 00 00 00 ...
T0E00 000:663.502   CPU_WriteMem(256 bytes @ 0x20002C14)
T0E00 000:664.617 - 1.140ms returns 0x100
T0E00 000:664.624 JLINK_HasError()
T0E00 000:664.630 JLINK_WriteReg(R0, 0x30000500)
T0E00 000:664.635 - 0.007ms returns 0
T0E00 000:664.641 JLINK_WriteReg(R1, 0x00000100)
T0E00 000:664.645 - 0.006ms returns 0
T0E00 000:664.650 JLINK_WriteReg(R2, 0x20002C14)
T0E00 000:664.655 - 0.006ms returns 0
T0E00 000:664.660 JLINK_WriteReg(R3, 0x00000000)
T0E00 000:664.664 - 0.006ms returns 0
T0E00 000:664.669 JLINK_WriteReg(R4, 0x00000000)
T0E00 000:664.673 - 0.006ms returns 0
T0E00 000:664.678 JLINK_WriteReg(R5, 0x00000000)
T0E00 000:664.682 - 0.006ms returns 0
T0E00 000:664.687 JLINK_WriteReg(R6, 0x00000000)
T0E00 000:664.692 - 0.006ms returns 0
T0E00 000:664.697 JLINK_WriteReg(R7, 0x00000000)
T0E00 000:664.701 - 0.006ms returns 0
T0E00 000:664.707 JLINK_WriteReg(R8, 0x00000000)
T0E00 000:664.713 - 0.008ms returns 0
T0E00 000:664.718 JLINK_WriteReg(R9, 0x20002A00)
T0E00 000:664.723 - 0.006ms returns 0
T0E00 000:664.727 JLINK_WriteReg(R10, 0x00000000)
T0E00 000:664.775 - 0.051ms returns 0
T0E00 000:664.782 JLINK_WriteReg(R11, 0x00000000)
T0E00 000:664.787 - 0.006ms returns 0
T0E00 000:664.792 JLINK_WriteReg(R12, 0x00000000)
T0E00 000:664.796 - 0.006ms returns 0
T0E00 000:664.801 JLINK_WriteReg(R13 (SP), 0x20008000)
T0E00 000:664.806 - 0.007ms returns 0
T0E00 000:664.811 JLINK_WriteReg(R14, 0x20000001)
T0E00 000:664.815 - 0.006ms returns 0
T0E00 000:664.820 JLINK_WriteReg(R15 (PC), 0x200001B0)
T0E00 000:664.825 - 0.006ms returns 0
T0E00 000:664.830 JLINK_WriteReg(XPSR, 0x01000000)
T0E00 000:664.835 - 0.006ms returns 0
T0E00 000:664.840 JLINK_WriteReg(MSP, 0x20008000)
T0E00 000:664.844 - 0.006ms returns 0
T0E00 000:664.849 JLINK_WriteReg(PSP, 0x20008000)
T0E00 000:664.853 - 0.006ms returns 0
T0E00 000:664.858 JLINK_WriteReg(CFBP, 0x00000000)
T0E00 000:664.863 - 0.006ms returns 0
T0E00 000:664.868 JLINK_SetBPEx(Addr = 0x20000000, Type = 0xFFFFFFF2)
T0E00 000:664.873 - 0.007ms returns 0x00000007
T0E00 000:664.878 JLINK_Go()
T0E00 000:664.886   CPU_WriteMem(4 bytes @ 0xE0002000)
T0E00 000:665.150   CPU_ReadMem(4 bytes @ 0xE0001000)
T0E00 000:667.175 - 2.303ms
T0E00 000:667.186 JLINK_IsHalted()
T0E00 000:667.383 - 0.200ms returns FALSE
T0E00 000:667.390 JLINK_HasError()
T0E00 000:670.534 JLINK_IsHalted()
T0E00 000:672.300 - 1.774ms returns TRUE
T0E00 000:672.317 JLINK_ReadReg(R15 (PC))
T0E00 000:672.328 - 0.014ms returns 0x20000000
T0E00 000:672.337 JLINK_ClrBPEx(BPHandle = 0x00000007)
T0E00 000:672.346 - 0.012ms returns 0x00
T0E00 000:672.356 JLINK_ReadReg(R0)
T0E00 000:672.364 - 0.012ms returns 0x00000000
T0E00 000:673.195 JLINK_WriteMem(0x20002C14, 0x100 Bytes, ...)
T0E00 000:673.204   Data:  00 00 00 00 00 00 00 00 00 00 00 00 00 00 00 00 ...
T0E00 000:673.218   CPU_WriteMem(256 bytes @ 0x20002C14)
T0E00 000:674.342 - 1.152ms returns 0x100
T0E00 000:674.356 JLINK_HasError()
T0E00 000:674.366 JLINK_WriteReg(R0, 0x30000600)
T0E00 000:674.376 - 0.014ms returns 0
T0E00 000:674.386 JLINK_WriteReg(R1, 0x00000100)
T0E00 000:674.394 - 0.012ms returns 0
T0E00 000:674.404 JLINK_WriteReg(R2, 0x20002C14)
T0E00 000:674.412 - 0.011ms returns 0
T0E00 000:674.421 JLINK_WriteReg(R3, 0x00000000)
T0E00 000:674.429 - 0.012ms returns 0
T0E00 000:674.439 JLINK_WriteReg(R4, 0x00000000)
T0E00 000:674.447 - 0.011ms returns 0
T0E00 000:674.456 JLINK_WriteReg(R5, 0x00000000)
T0E00 000:674.464 - 0.011ms returns 0
T0E00 000:674.473 JLINK_WriteReg(R6, 0x00000000)
T0E00 000:674.481 - 0.011ms returns 0
T0E00 000:674.490 JLINK_WriteReg(R7, 0x00000000)
T0E00 000:674.498 - 0.012ms returns 0
T0E00 000:674.507 JLINK_WriteReg(R8, 0x00000000)
T0E00 000:674.516 - 0.011ms returns 0
T0E00 000:674.525 JLINK_WriteReg(R9, 0x20002A00)
T0E00 000:674.533 - 0.011ms returns 0
T0E00 000:674.542 JLINK_WriteReg(R10, 0x00000000)
T0E00 000:674.550 - 0.012ms returns 0
T0E00 000:674.559 JLINK_WriteReg(R11, 0x00000000)
T0E00 000:674.567 - 0.011ms returns 0
T0E00 000:674.577 JLINK_WriteReg(R12, 0x00000000)
T0E00 000:674.585 - 0.011ms returns 0
T0E00 000:674.594 JLINK_WriteReg(R13 (SP), 0x20008000)
T0E00 000:674.602 - 0.012ms returns 0
T0E00 000:674.612 JLINK_WriteReg(R14, 0x20000001)
T0E00 000:674.620 - 0.012ms returns 0
T0E00 000:674.629 JLINK_WriteReg(R15 (PC), 0x200001B0)
T0E00 000:674.637 - 0.012ms returns 0
T0E00 000:674.647 JLINK_WriteReg(XPSR, 0x01000000)
T0E00 000:674.655 - 0.012ms returns 0
T0E00 000:674.664 JLINK_WriteReg(MSP, 0x20008000)
T0E00 000:674.672 - 0.011ms returns 0
T0E00 000:674.681 JLINK_WriteReg(PSP, 0x20008000)
T0E00 000:674.689 - 0.011ms returns 0
T0E00 000:674.698 JLINK_WriteReg(CFBP, 0x00000000)
T0E00 000:674.706 - 0.011ms returns 0
T0E00 000:674.716 JLINK_SetBPEx(Addr = 0x20000000, Type = 0xFFFFFFF2)
T0E00 000:674.725 - 0.013ms returns 0x00000008
T0E00 000:674.735 JLINK_Go()
T0E00 000:674.746   CPU_WriteMem(4 bytes @ 0xE0002000)
T0E00 000:675.100   CPU_ReadMem(4 bytes @ 0xE0001000)
T0E00 000:677.234 - 2.506ms
T0E00 000:677.246 JLINK_IsHalted()
T0E00 000:677.449 - 0.207ms returns FALSE
T0E00 000:677.505 JLINK_HasError()
T0E00 000:680.058 JLINK_IsHalted()
T0E00 000:681.819 - 1.767ms returns TRUE
T0E00 000:681.833 JLINK_ReadReg(R15 (PC))
T0E00 000:681.843 - 0.013ms returns 0x20000000
T0E00 000:681.853 JLINK_ClrBPEx(BPHandle = 0x00000008)
T0E00 000:681.862 - 0.012ms returns 0x00
T0E00 000:681.871 JLINK_ReadReg(R0)
T0E00 000:681.880 - 0.012ms returns 0x00000000
T0E00 000:682.706 JLINK_WriteMem(0x20002C14, 0x100 Bytes, ...)
T0E00 000:682.715   Data:  00 00 00 00 00 00 00 00 00 00 00 00 00 00 00 00 ...
T0E00 000:682.726   CPU_WriteMem(256 bytes @ 0x20002C14)
T0E00 000:683.833 - 1.130ms returns 0x100
T0E00 000:683.844 JLINK_HasError()
T0E00 000:683.854 JLINK_WriteReg(R0, 0x30000700)
T0E00 000:683.864 - 0.014ms returns 0
T0E00 000:683.874 JLINK_WriteReg(R1, 0x00000100)
T0E00 000:683.882 - 0.012ms returns 0
T0E00 000:683.892 JLINK_WriteReg(R2, 0x20002C14)
T0E00 000:683.900 - 0.012ms returns 0
T0E00 000:683.909 JLINK_WriteReg(R3, 0x00000000)
T0E00 000:683.917 - 0.012ms returns 0
T0E00 000:683.927 JLINK_WriteReg(R4, 0x00000000)
T0E00 000:683.935 - 0.012ms returns 0
T0E00 000:683.944 JLINK_WriteReg(R5, 0x00000000)
T0E00 000:683.952 - 0.012ms returns 0
T0E00 000:683.961 JLINK_WriteReg(R6, 0x00000000)
T0E00 000:683.969 - 0.011ms returns 0
T0E00 000:683.978 JLINK_WriteReg(R7, 0x00000000)
T0E00 000:683.986 - 0.011ms returns 0
T0E00 000:683.996 JLINK_WriteReg(R8, 0x00000000)
T0E00 000:684.004 - 0.011ms returns 0
T0E00 000:684.013 JLINK_WriteReg(R9, 0x20002A00)
T0E00 000:684.021 - 0.011ms returns 0
T0E00 000:684.030 JLINK_WriteReg(R10, 0x00000000)
T0E00 000:684.038 - 0.011ms returns 0
T0E00 000:684.048 JLINK_WriteReg(R11, 0x00000000)
T0E00 000:684.056 - 0.011ms returns 0
T0E00 000:684.067 JLINK_WriteReg(R12, 0x00000000)
T0E00 000:684.082 - 0.020ms returns 0
T0E00 000:684.096 JLINK_WriteReg(R13 (SP), 0x20008000)
T0E00 000:684.109 - 0.019ms returns 0
T0E00 000:684.124 JLINK_WriteReg(R14, 0x20000001)
T0E00 000:684.140 - 0.025ms returns 0
T0E00 000:684.161 JLINK_WriteReg(R15 (PC), 0x200001B0)
T0E00 000:684.177 - 0.022ms returns 0
T0E00 000:684.192 JLINK_WriteReg(XPSR, 0x01000000)
T0E00 000:684.207 - 0.020ms returns 0
T0E00 000:684.221 JLINK_WriteReg(MSP, 0x20008000)
T0E00 000:684.231 - 0.020ms returns 0
T0E00 000:687.689 JLINK_WriteReg(PSP, 0x20008000)
T0E00 000:687.711 - 0.026ms returns 0
T0E00 000:687.723 JLINK_WriteReg(CFBP, 0x00000000)
T0E00 000:687.733 - 0.013ms returns 0
T0E00 000:687.743 JLINK_SetBPEx(Addr = 0x20000000, Type = 0xFFFFFFF2)
T0E00 000:687.755 - 0.015ms returns 0x00000009
T0E00 000:687.765 JLINK_Go()
T0E00 000:687.780   CPU_WriteMem(4 bytes @ 0xE0002000)
T0E00 000:688.081   CPU_ReadMem(4 bytes @ 0xE0001000)
T0E00 000:690.110 - 2.351ms
T0E00 000:690.121 JLINK_IsHalted()
T0E00 000:690.316 - 0.199ms returns FALSE
T0E00 000:690.324 JLINK_HasError()
T0E00 000:693.466 JLINK_IsHalted()
T0E00 000:695.269 - 1.815ms returns TRUE
T0E00 000:695.294 JLINK_ReadReg(R15 (PC))
T0E00 000:695.307 - 0.020ms returns 0x20000000
T0E00 000:695.322 JLINK_ClrBPEx(BPHandle = 0x00000009)
T0E00 000:695.331 - 0.013ms returns 0x00
T0E00 000:695.342 JLINK_ReadReg(R0)
T0E00 000:695.351 - 0.012ms returns 0x00000000
T0E00 000:696.098 JLINK_WriteMem(0x20002C14, 0x100 Bytes, ...)
T0E00 000:696.108   Data:  00 00 00 00 00 00 00 00 00 00 00 00 00 00 00 00 ...
T0E00 000:696.120   CPU_WriteMem(256 bytes @ 0x20002C14)
T0E00 000:697.225 - 1.130ms returns 0x100
T0E00 000:697.233 JLINK_HasError()
T0E00 000:697.238 JLINK_WriteReg(R0, 0x30000800)
T0E00 000:697.244 - 0.007ms returns 0
T0E00 000:697.249 JLINK_WriteReg(R1, 0x00000100)
T0E00 000:697.254 - 0.006ms returns 0
T0E00 000:697.259 JLINK_WriteReg(R2, 0x20002C14)
T0E00 000:697.263 - 0.006ms returns 0
T0E00 000:697.268 JLINK_WriteReg(R3, 0x00000000)
T0E00 000:697.273 - 0.006ms returns 0
T0E00 000:697.278 JLINK_WriteReg(R4, 0x00000000)
T0E00 000:697.282 - 0.006ms returns 0
T0E00 000:697.287 JLINK_WriteReg(R5, 0x00000000)
T0E00 000:697.291 - 0.006ms returns 0
T0E00 000:697.296 JLINK_WriteReg(R6, 0x00000000)
T0E00 000:697.303 - 0.009ms returns 0
T0E00 000:697.309 JLINK_WriteReg(R7, 0x00000000)
T0E00 000:697.313 - 0.006ms returns 0
T0E00 000:697.318 JLINK_WriteReg(R8, 0x00000000)
T0E00 000:697.323 - 0.006ms returns 0
T0E00 000:697.328 JLINK_WriteReg(R9, 0x20002A00)
T0E00 000:697.332 - 0.006ms returns 0
T0E00 000:697.337 JLINK_WriteReg(R10, 0x00000000)
T0E00 000:697.342 - 0.006ms returns 0
T0E00 000:697.347 JLINK_WriteReg(R11, 0x00000000)
T0E00 000:697.351 - 0.006ms returns 0
T0E00 000:697.356 JLINK_WriteReg(R12, 0x00000000)
T0E00 000:697.361 - 0.006ms returns 0
T0E00 000:697.365 JLINK_WriteReg(R13 (SP), 0x20008000)
T0E00 000:697.370 - 0.006ms returns 0
T0E00 000:697.375 JLINK_WriteReg(R14, 0x20000001)
T0E00 000:697.380 - 0.006ms returns 0
T0E00 000:697.384 JLINK_WriteReg(R15 (PC), 0x200001B0)
T0E00 000:697.389 - 0.006ms returns 0
T0E00 000:697.394 JLINK_WriteReg(XPSR, 0x01000000)
T0E00 000:697.398 - 0.006ms returns 0
T0E00 000:697.403 JLINK_WriteReg(MSP, 0x20008000)
T0E00 000:697.408 - 0.006ms returns 0
T0E00 000:697.412 JLINK_WriteReg(PSP, 0x20008000)
T0E00 000:697.417 - 0.006ms returns 0
T0E00 000:697.422 JLINK_WriteReg(CFBP, 0x00000000)
T0E00 000:697.426 - 0.006ms returns 0
T0E00 000:697.431 JLINK_SetBPEx(Addr = 0x20000000, Type = 0xFFFFFFF2)
T0E00 000:697.436 - 0.007ms returns 0x0000000A
T0E00 000:697.441 JLINK_Go()
T0E00 000:697.447   CPU_WriteMem(4 bytes @ 0xE0002000)
T0E00 000:697.669   CPU_ReadMem(4 bytes @ 0xE0001000)
T0E00 000:699.651 - 2.218ms
T0E00 000:699.668 JLINK_IsHalted()
T0E00 000:699.881 - 0.218ms returns FALSE
T0E00 000:699.893 JLINK_HasError()
T0E00 000:703.562 JLINK_IsHalted()
T0E00 000:705.341 - 1.785ms returns TRUE
T0E00 000:705.352 JLINK_ReadReg(R15 (PC))
T0E00 000:705.359 - 0.009ms returns 0x20000000
T0E00 000:705.366 JLINK_ClrBPEx(BPHandle = 0x0000000A)
T0E00 000:705.372 - 0.008ms returns 0x00
T0E00 000:705.378 JLINK_ReadReg(R0)
T0E00 000:705.384 - 0.008ms returns 0x00000000
T0E00 000:705.893 JLINK_WriteMem(0x20002C14, 0x100 Bytes, ...)
T0E00 000:705.903   Data:  00 00 00 00 00 00 00 00 00 00 00 00 00 00 00 00 ...
T0E00 000:705.916   CPU_WriteMem(256 bytes @ 0x20002C14)
T0E00 000:707.150 - 1.265ms returns 0x100
T0E00 000:707.167 JLINK_HasError()
T0E00 000:707.178 JLINK_WriteReg(R0, 0x30000900)
T0E00 000:707.189 - 0.015ms returns 0
T0E00 000:707.199 JLINK_WriteReg(R1, 0x00000100)
T0E00 000:707.208 - 0.012ms returns 0
T0E00 000:707.217 JLINK_WriteReg(R2, 0x20002C14)
T0E00 000:707.225 - 0.011ms returns 0
T0E00 000:707.231 JLINK_WriteReg(R3, 0x00000000)
T0E00 000:707.236 - 0.006ms returns 0
T0E00 000:707.240 JLINK_WriteReg(R4, 0x00000000)
T0E00 000:707.245 - 0.006ms returns 0
T0E00 000:707.250 JLINK_WriteReg(R5, 0x00000000)
T0E00 000:707.254 - 0.006ms returns 0
T0E00 000:707.259 JLINK_WriteReg(R6, 0x00000000)
T0E00 000:707.263 - 0.006ms returns 0
T0E00 000:707.268 JLINK_WriteReg(R7, 0x00000000)
T0E00 000:707.273 - 0.006ms returns 0
T0E00 000:707.277 JLINK_WriteReg(R8, 0x00000000)
T0E00 000:707.282 - 0.006ms returns 0
T0E00 000:707.287 JLINK_WriteReg(R9, 0x20002A00)
T0E00 000:707.291 - 0.006ms returns 0
T0E00 000:707.296 JLINK_WriteReg(R10, 0x00000000)
T0E00 000:707.300 - 0.006ms returns 0
T0E00 000:707.306 JLINK_WriteReg(R11, 0x00000000)
T0E00 000:707.310 - 0.006ms returns 0
T0E00 000:707.315 JLINK_WriteReg(R12, 0x00000000)
T0E00 000:707.319 - 0.006ms returns 0
T0E00 000:707.324 JLINK_WriteReg(R13 (SP), 0x20008000)
T0E00 000:707.329 - 0.006ms returns 0
T0E00 000:707.334 JLINK_WriteReg(R14, 0x20000001)
T0E00 000:707.338 - 0.006ms returns 0
T0E00 000:707.343 JLINK_WriteReg(R15 (PC), 0x200001B0)
T0E00 000:707.348 - 0.006ms returns 0
T0E00 000:707.352 JLINK_WriteReg(XPSR, 0x01000000)
T0E00 000:707.357 - 0.006ms returns 0
T0E00 000:707.362 JLINK_WriteReg(MSP, 0x20008000)
T0E00 000:707.366 - 0.006ms returns 0
T0E00 000:707.371 JLINK_WriteReg(PSP, 0x20008000)
T0E00 000:707.376 - 0.006ms returns 0
T0E00 000:707.383 JLINK_WriteReg(CFBP, 0x00000000)
T0E00 000:707.388 - 0.006ms returns 0
T0E00 000:707.393 JLINK_SetBPEx(Addr = 0x20000000, Type = 0xFFFFFFF2)
T0E00 000:707.400 - 0.010ms returns 0x0000000B
T0E00 000:707.407 JLINK_Go()
T0E00 000:707.413   CPU_WriteMem(4 bytes @ 0xE0002000)
T0E00 000:707.647   CPU_ReadMem(4 bytes @ 0xE0001000)
T0E00 000:709.628 - 2.228ms
T0E00 000:709.643 JLINK_IsHalted()
T0E00 000:709.854 - 0.216ms returns FALSE
T0E00 000:709.866 JLINK_HasError()
T0E00 000:713.605 JLINK_IsHalted()
T0E00 000:715.393 - 1.797ms returns TRUE
T0E00 000:715.410 JLINK_ReadReg(R15 (PC))
T0E00 000:715.421 - 0.014ms returns 0x20000000
T0E00 000:715.431 JLINK_ClrBPEx(BPHandle = 0x0000000B)
T0E00 000:715.439 - 0.012ms returns 0x00
T0E00 000:715.449 JLINK_ReadReg(R0)
T0E00 000:715.457 - 0.012ms returns 0x00000000
T0E00 000:716.297 JLINK_WriteMem(0x20002C14, 0x100 Bytes, ...)
T0E00 000:716.312   Data:  00 00 00 00 00 00 00 00 00 00 00 00 00 00 00 00 ...
T0E00 000:716.333   CPU_WriteMem(256 bytes @ 0x20002C14)
T0E00 000:717.465 - 1.172ms returns 0x100
T0E00 000:717.473 JLINK_HasError()
T0E00 000:717.478 JLINK_WriteReg(R0, 0x30000A00)
T0E00 000:717.484 - 0.007ms returns 0
T0E00 000:717.489 JLINK_WriteReg(R1, 0x00000100)
T0E00 000:717.493 - 0.006ms returns 0
T0E00 000:717.498 JLINK_WriteReg(R2, 0x20002C14)
T0E00 000:717.503 - 0.006ms returns 0
T0E00 000:717.508 JLINK_WriteReg(R3, 0x00000000)
T0E00 000:717.513 - 0.006ms returns 0
T0E00 000:717.518 JLINK_WriteReg(R4, 0x00000000)
T0E00 000:717.522 - 0.006ms returns 0
T0E00 000:717.527 JLINK_WriteReg(R5, 0x00000000)
T0E00 000:717.532 - 0.006ms returns 0
T0E00 000:717.537 JLINK_WriteReg(R6, 0x00000000)
T0E00 000:717.541 - 0.006ms returns 0
T0E00 000:717.546 JLINK_WriteReg(R7, 0x00000000)
T0E00 000:717.550 - 0.006ms returns 0
T0E00 000:717.555 JLINK_WriteReg(R8, 0x00000000)
T0E00 000:717.560 - 0.006ms returns 0
T0E00 000:717.565 JLINK_WriteReg(R9, 0x20002A00)
T0E00 000:717.569 - 0.006ms returns 0
T0E00 000:717.574 JLINK_WriteReg(R10, 0x00000000)
